
**** 05/29/15 17:07:13 ***** PSpice 16.6.0 (October 2012) ***** ID# 0 ********

 ** Profile: "SCHEMATIC1-d1d"  [ F:\111\747-pspicefiles\schematic1\d1d.sim ] 


 ****     CIRCUIT DESCRIPTION


******************************************************************************




** Creating circuit file "d1d.cir" 
** WARNING: THIS AUTOMATICALLY GENERATED FILE MAY BE OVERWRITTEN BY SUBSEQUENT SIMULATIONS

*Libraries: 
* Profile Libraries :
* Local Libraries :
.LIB "F:/2015_new/5_spice-modle/op747/op747.lib" 
* From [PSPICE NETLIST] section of C:\ProgRam\Cadence\SPB_16.6\SPB_Data\cdssetup\OrCAD_PSpice/16.6.0/PSpice.ini file:
.lib "F:\2015_NEW\5_spice-modle\AD623\ad623.lib" 
.lib "nom.lib" 

*Analysis directives: 
.AC DEC 10 0.01 1000
.OPTIONS ADVCONV
.PROBE64 V(alias(*)) I(alias(*)) W(alias(*)) D(alias(*)) NOISE(alias(*)) 
.INC "..\SCHEMATIC1.net" 



**** INCLUDING SCHEMATIC1.net ****
* source 747
X_U4         NET+ NET- N62625 N62636 N62187 0 NET1 N62328 AD623 
R_R16         N62625 N62636  200k TC=0,0 
V_V30         NET- 0 1.5Vdc
V_V31         N62187 0 3.3Vdc
R_R17         N62187 N62328  200k TC=0,0 
R_R18         N62328 0  100k TC=0,0 
R_R19         NET2 N62328  2000k TC=0,0 
R_R20         NET2 N73776  100k TC=0,0 
R_R21         N73776 N73790  100k TC=0,0 
R_R22         N62625 N62636  200k TC=0,0 
R_R23         N74337 NET3  200k TC=0,0 
R_R24         N62328 N74337  300k TC=0,0 
R_R25         NET3 N75122  20k TC=0,0 
R_R26         N62328 N75211  20k TC=0,0 
R_R27         N75211 NET4  510k TC=0,0 
X_U5         N73790 N74337 N62187 0 NET3 OP747 
X_U6         N75122 N75211 N62187 0 NET4 OP747 
C_C1         NET1 NET2  1u  TC=0,0 
V_V32         NET+ NET- DC 0Vdc AC 3mVac 
C_C2         N73776 NET3  47n  TC=0,0 
C_C3         N62328 N73790  47n  TC=0,0 

**** RESUMING d1d.cir ****
.END

**** 05/29/15 17:07:13 ***** PSpice 16.6.0 (October 2012) ***** ID# 0 ********

 ** Profile: "SCHEMATIC1-d1d"  [ F:\111\747-pspicefiles\schematic1\d1d.sim ] 


 ****     Diode MODEL PARAMETERS


******************************************************************************




               X_U4.DX         X_U4.DNOI1      X_U4.DNOI2      X_U5.DX         
          IS  100.000000E-18   10.000000E-15   10.000000E-15   10.000000E-15 
          RS                                                    5            
          KF                  600.000000E-12   10.000000E-09                 
          AF                    1.5                                          


               X_U6.DX         
          IS   10.000000E-15 
          RS    5            


**** 05/29/15 17:07:13 ***** PSpice 16.6.0 (October 2012) ***** ID# 0 ********

 ** Profile: "SCHEMATIC1-d1d"  [ F:\111\747-pspicefiles\schematic1\d1d.sim ] 


 ****     BJT MODEL PARAMETERS


******************************************************************************




               X_U4.QPI        X_U4.QNOX       X_U4.QPOX       X_U4.QPI1       
               PNP             NPN             PNP             PNP             
       LEVEL    1               1               1               1            
          IS  100.000000E-18    6.000000E-15    6.000000E-15  100.000000E-18 
          BF  100             100             112             100            
          NF    1               1               1               1            
         VAF  100             120             120             100            
          BR    1               1               1               1            
          NR    1               1               1               1            
         ISS    0               0               0               0            
          RE    0               0               0               0            
          RC    0              50              50               0            
         CJE    0               0               0               0            
         VJE     .75             .75             .75             .75         
         CJC    0               0               0               0            
         VJC     .75             .75             .75             .75         
         MJC     .33             .33             .33             .33         
        XCJC    1               1               1               1            
         CJS    0               0               0               0            
         VJS     .75             .75             .75             .75         
          KF    0               0               0               0            
          AF    1               1               1               1            
          CN    2.2             2.42            2.2             2.2          
           D     .52             .87             .52             .52         


               X_U4.QPI2       X_U5.PIX        X_U6.PIX        
               PNP             PNP             PNP             
       LEVEL    1               1               1            
          IS  100.000000E-18   10.000000E-15   10.000000E-15 
          BF  100               2.273000E+03    2.273000E+03 
          NF    1               1               1            
         VAF   99.3           130             130            
          BR    1               1               1            
          NR    1               1               1            
         ISS    0               0               0            
          RE    0               0               0            
          RC    0               0               0            
         CJE    0               0               0            
         VJE     .75             .75             .75         
         CJC    0               0               0            
         VJC     .75             .75             .75         
         MJC     .33             .33             .33         
        XCJC    1               1               1            
         CJS    0               0               0            
         VJS     .75             .75             .75         
          KF    0               0               0            
          AF    1               1               1            
          CN    2.2             2.2             2.2          
           D     .52             .52             .52         


**** 05/29/15 17:07:13 ***** PSpice 16.6.0 (October 2012) ***** ID# 0 ********

 ** Profile: "SCHEMATIC1-d1d"  [ F:\111\747-pspicefiles\schematic1\d1d.sim ] 


 ****     MOSFET MODEL PARAMETERS


******************************************************************************




               X_U5.POX        X_U5.NOX        X_U6.POX        X_U6.NOX        
               PMOS            NMOS            PMOS            NMOS            
       LEVEL    2               2               2               2            
           L  100.000000E-06  100.000000E-06  100.000000E-06  100.000000E-06 
           W  100.000000E-06  100.000000E-06  100.000000E-06  100.000000E-06 
         VTO    -.328            .328           -.328            .328        
          KP   10.000000E-06   10.000000E-06   10.000000E-06   10.000000E-06 
       GAMMA    0               0               0               0            
         PHI     .6              .6              .6              .6          
      LAMBDA     .01             .01             .01             .01         
          IS   10.000000E-15   10.000000E-15   10.000000E-15   10.000000E-15 
          JS    0               0               0               0            
          PB     .8              .8              .8              .8          
        PBSW     .8              .8              .8              .8          
          CJ    0               0               0               0            
        CJSW    0               0               0               0            
        CGSO    0               0               0               0            
        CGDO    0               0               0               0            
        CGBO    0               0               0               0            
         TOX  100.000000E-09  100.000000E-09  100.000000E-09  100.000000E-09 
          XJ    0               0               0               0            
       UCRIT   10.000000E+03   10.000000E+03   10.000000E+03   10.000000E+03 
          KF   25.000000E-24   25.000000E-24   25.000000E-24   25.000000E-24 
      DIOMOD    1               1               1               1            
         VFB    0               0               0               0            
        LETA    0               0               0               0            
        WETA    0               0               0               0            
          U0    0               0               0               0            
        TEMP    0               0               0               0            
         VDD    5               5               5               5            
       XPART    0               0               0               0            


**** 05/29/15 17:07:13 ***** PSpice 16.6.0 (October 2012) ***** ID# 0 ********

 ** Profile: "SCHEMATIC1-d1d"  [ F:\111\747-pspicefiles\schematic1\d1d.sim ] 


 ****     SMALL SIGNAL BIAS SOLUTION       TEMPERATURE =   27.000 DEG C


******************************************************************************



 NODE   VOLTAGE     NODE   VOLTAGE     NODE   VOLTAGE     NODE   VOLTAGE


( NET+)    1.5000  ( NET-)    1.5000  ( NET1)    1.5948  ( NET2)    1.6173      

( NET3)    1.6353  ( NET4)    2.7019  (N62187)    3.3000 (N62328)    1.5936     

(N62625)    2.1140 (N62636)    2.1140 (N73776)    1.6185 (N73790)    1.6197     

(N74337)    1.6198 (N75122)    1.6355 (N75211)    1.6356 (X_U5.3)    2.1792     

(X_U5.5)     .1999 (X_U5.6)     .1999 (X_U5.7)    1.6198 (X_U5.8)    2.3000     

(X_U6.3)    2.1950 (X_U6.5)     .1999 (X_U6.6)     .1999 (X_U6.7)    1.6356     

(X_U6.8)    2.3000 (X_U4.97)    0.0000                   (X_U4.98)    1.6500    

(X_U4.A3)    2.1135                   (X_U4.A4)    2.1135                       

(X_U4.B3)    1.8544                   (X_U4.B4)     .0421                       

(X_U4.B5)    2.4908                   (X_U4.B6)     .0421                       

(X_U4.b7)    2.4908                   (X_U4.B8)    2.5073                       

(X_U4.C3)    1.6500                   (X_U4.C4)     .0421                       

(X_U4.C5)    2.1140                   (X_U4.C6)     .0421                       

(X_U4.C8)    2.7504                   (X_U4.D3)    1.6500                       

(X_U4.D4)     .0421                   (X_U4.D5)    2.1140                       

(X_U4.D6)     .0421                   (X_U4.D8)    2.7504                       

(X_U5.21)    1.6198                   (X_U5.22)    1.6500                       

(X_U5.30)    1.6500                   (X_U5.46)    2.6701                       

(X_U5.47)     .5739                   (X_U5.51)    1.6500                       

(X_U5.70)    0.0000                   (X_U5.71)    0.0000                       

(X_U5.72)    1.6500                   (X_U5.73)    1.6500                       

(X_U5.80)    1.6500                   (X_U5.81)    1.6500                       

(X_U5.97)    1.6500                   (X_U5.98)    1.6500                       

(X_U6.21)    1.6356                   (X_U6.22)    1.6500                       

(X_U6.30)    1.6476                   (X_U6.46)    2.6677                       

(X_U6.47)     .5715                   (X_U6.51)    1.6500                       

(X_U6.70)    0.0000                   (X_U6.71)    0.0000                       

(X_U6.72)    1.6500                   (X_U6.73)    1.6500                       

(X_U6.80)    1.6500                   (X_U6.81)    1.6500                       

(X_U6.97)    1.6500                   (X_U6.98)    1.6500                       

(X_U4.103)    2.1116                  (X_U4.104)    2.1116                      

(X_U4.201)    1.8538                  (X_U4.202)    1.8544                      

(X_U4.B20)    1.6500                  (X_U4.B21)    1.6500                      

(X_U4.B30)    1.6501                  (X_U4.B31)    2.2501                      

(X_U4.B32)    1.0501                  (X_U4.B41)    2.7035                      

(X_U4.B42)    2.7047                  (X_U4.B43)    3.2983                      

(X_U4.B44)     .5977                  (X_U4.B46)     .0019                      

(X_U4.B47)     .5965                  (X_U4.B51)    2.2900                      

(X_U4.B52)    1.6500                  (X_U4.B53)    1.6494                      

(X_U4.C20)    1.6500                  (X_U4.C30)    1.6497                      

(X_U4.C31)    2.2497                  (X_U4.C32)    1.0497                      

(X_U4.C41)    2.7035                  (X_U4.C42)    2.7022                      

(X_U4.C43)    3.2981                  (X_U4.C44)     .5952                      

(X_U4.C46)     .0017                  (X_U4.C47)     .5965                      

(X_U4.C51)    2.2900                  (X_U4.C52)    1.6500                      

(X_U4.C53)    1.6494                  (X_U4.D20)    1.6500                      

(X_U4.D30)    1.6497                  (X_U4.D31)    2.2497                      

(X_U4.D32)    1.0497                  (X_U4.D41)    2.7035                      

(X_U4.D42)    2.7022                  (X_U4.D43)    3.2981                      

(X_U4.D44)     .5952                  (X_U4.D46)     .0017                      

(X_U4.D47)     .5965                  (X_U4.D51)    2.2900                      

(X_U4.D52)    1.6500                  (X_U4.D53)    1.6494                  




    VOLTAGE SOURCE CURRENTS
    NAME         CURRENT

    V_V30        3.997E-08
    V_V31       -7.690E-04
    V_V32        1.998E-08
    X_U4.VN1B   -5.578E-04
    X_U4.VMEASB   5.578E-04
    X_U4.V1B     1.050E-12
    X_U4.V2B     1.050E-12
    X_U4.VBI01B  -4.962E-07
    X_U4.VBIO2B  -6.078E-07
    X_U4.VN1C   -5.578E-04
    X_U4.VMEASC   5.578E-04
    X_U4.V1C     1.050E-12
    X_U4.V2C     1.050E-12
    X_U4.VBI01C  -5.441E-07
    X_U4.VBIO2C  -5.543E-07
    X_U4.VN1D   -5.578E-04
    X_U4.VMEASD   5.578E-04
    X_U4.V1D     1.050E-12
    X_U4.V2D     1.050E-12
    X_U4.VBI01D  -5.441E-07
    X_U4.VBIO2D  -5.544E-07
    X_U5.V1      1.307E-13
    X_U5.VN1     0.000E+00
    X_U6.V1      1.148E-13
    X_U6.VN1     0.000E+00

    TOTAL POWER DISSIPATION   3.61E-03  WATTS



          JOB CONCLUDED

**** 05/29/15 17:07:13 ***** PSpice 16.6.0 (October 2012) ***** ID# 0 ********

 ** Profile: "SCHEMATIC1-d1d"  [ F:\111\747-pspicefiles\schematic1\d1d.sim ] 


 ****     JOB STATISTICS SUMMARY


******************************************************************************



  Total job time (using Solver 1)   =         .03
