
**** 05/11/15 15:00:10 ***** PSpice 16.6.0 (October 2012) ***** ID# 0 ********

 ** Profile: "SCHEMATIC1-dd"  [ F:\111\747-pspicefiles\schematic1\dd.sim ] 


 ****     CIRCUIT DESCRIPTION


******************************************************************************




** Creating circuit file "dd.cir" 
** WARNING: THIS AUTOMATICALLY GENERATED FILE MAY BE OVERWRITTEN BY SUBSEQUENT SIMULATIONS

*Libraries: 
* Profile Libraries :
* Local Libraries :
.LIB "F:/2015_new/5_spice-modle/op747/op747.lib" 
* From [PSPICE NETLIST] section of C:\ProgRam\Cadence\SPB_16.6\SPB_Data\cdssetup\OrCAD_PSpice/16.6.0/PSpice.ini file:
.lib "nom.lib" 

*Analysis directives: 
.AC DEC 10 0.1 1000
.OPTIONS ADVCONV
.PROBE64 V(alias(*)) I(alias(*)) W(alias(*)) D(alias(*)) NOISE(alias(*)) 
.INC "..\SCHEMATIC1.net" 



**** INCLUDING SCHEMATIC1.net ****
* source 747
C_C4         N01678 N00291  17n  TC=0,0 
C_C2         V3 N02062  10n  TC=0,0 
X_U11         N00261 N01666 N00145 0 N01678 OP747 
R_R10         VREF N02062  20k TC=0,0 
C_C5         N38499 V1  1u  TC=0,0 
R_R5         VREF N00847  200k TC=0,0 
R_R4         VREF V1  2MEG TC=0,0 
R_R8         VREF N01666  340k TC=0,0 
C_C1         VREF N00261  17n  TC=0,0 
V_V1         N00145 0 3.3Vdc
X_U12         V2 N02062 N27228 0 V3 OP747 
R_R2         N01678 V2  20k TC=0,0 
R_R9         N02062 V3  1000K TC=0,0 
R_R1         N00291 N00261  300k TC=0,0 
R_R7         N01666 N01678  200k TC=0,0 
V_V2         N00847 0 3.3Vdc
R_R6         0 VREF  100k TC=0,0 
V_V18         N27228 0 10Vdc
R_R3         V1 N00291  300k TC=0,0 
V_V19         N38499 0  
+PULSE 1020mV 1v 0 10n 10n 0.05s 0.1s
R_R11         0 N37351  1k TC=0,0 
V_V20         N37351 0 DC 1.5Vdc AC 10m 
V_V21         V11 0 DC 1.5Vdc AC 10m 
C_C6         0 V12  1u  TC=0,0 
C_C7         0 V13  1u  TC=0,0 
R_R12         V11 V12  1k TC=0,0 
R_R13         V12 V13  1k TC=0,0 

**** RESUMING dd.cir ****
.END

**** 05/11/15 15:00:10 ***** PSpice 16.6.0 (October 2012) ***** ID# 0 ********

 ** Profile: "SCHEMATIC1-dd"  [ F:\111\747-pspicefiles\schematic1\dd.sim ] 


 ****     Diode MODEL PARAMETERS


******************************************************************************




               X_U11.DX        X_U12.DX        
          IS   10.000000E-15   10.000000E-15 
          RS    5               5            


**** 05/11/15 15:00:10 ***** PSpice 16.6.0 (October 2012) ***** ID# 0 ********

 ** Profile: "SCHEMATIC1-dd"  [ F:\111\747-pspicefiles\schematic1\dd.sim ] 


 ****     BJT MODEL PARAMETERS


******************************************************************************




               X_U11.PIX       X_U12.PIX       
               PNP             PNP             
       LEVEL    1               1            
          IS   10.000000E-15   10.000000E-15 
          BF    2.273000E+03    2.273000E+03 
          NF    1               1            
         VAF  130             130            
          BR    1               1            
          NR    1               1            
         ISS    0               0            
          RE    0               0            
          RC    0               0            
         CJE    0               0            
         VJE     .75             .75         
         CJC    0               0            
         VJC     .75             .75         
         MJC     .33             .33         
        XCJC    1               1            
         CJS    0               0            
         VJS     .75             .75         
          KF    0               0            
          AF    1               1            
          CN    2.2             2.2          
           D     .52             .52         


**** 05/11/15 15:00:10 ***** PSpice 16.6.0 (October 2012) ***** ID# 0 ********

 ** Profile: "SCHEMATIC1-dd"  [ F:\111\747-pspicefiles\schematic1\dd.sim ] 


 ****     MOSFET MODEL PARAMETERS


******************************************************************************




               X_U11.POX       X_U11.NOX       X_U12.POX       X_U12.NOX       
               PMOS            NMOS            PMOS            NMOS            
       LEVEL    2               2               2               2            
           L  100.000000E-06  100.000000E-06  100.000000E-06  100.000000E-06 
           W  100.000000E-06  100.000000E-06  100.000000E-06  100.000000E-06 
         VTO    -.328            .328           -.328            .328        
          KP   10.000000E-06   10.000000E-06   10.000000E-06   10.000000E-06 
       GAMMA    0               0               0               0            
         PHI     .6              .6              .6              .6          
      LAMBDA     .01             .01             .01             .01         
          IS   10.000000E-15   10.000000E-15   10.000000E-15   10.000000E-15 
          JS    0               0               0               0            
          PB     .8              .8              .8              .8          
        PBSW     .8              .8              .8              .8          
          CJ    0               0               0               0            
        CJSW    0               0               0               0            
        CGSO    0               0               0               0            
        CGDO    0               0               0               0            
        CGBO    0               0               0               0            
         TOX  100.000000E-09  100.000000E-09  100.000000E-09  100.000000E-09 
          XJ    0               0               0               0            
       UCRIT   10.000000E+03   10.000000E+03   10.000000E+03   10.000000E+03 
          KF   25.000000E-24   25.000000E-24   25.000000E-24   25.000000E-24 
      DIOMOD    1               1               1               1            
         VFB    0               0               0               0            
        LETA    0               0               0               0            
        WETA    0               0               0               0            
          U0    0               0               0               0            
        TEMP    0               0               0               0            
         VDD    5               5               5               5            
       XPART    0               0               0               0            


**** 05/11/15 15:00:10 ***** PSpice 16.6.0 (October 2012) ***** ID# 0 ********

 ** Profile: "SCHEMATIC1-dd"  [ F:\111\747-pspicefiles\schematic1\dd.sim ] 


 ****     SMALL SIGNAL BIAS SOLUTION       TEMPERATURE =   27.000 DEG C


******************************************************************************



 NODE   VOLTAGE     NODE   VOLTAGE     NODE   VOLTAGE     NODE   VOLTAGE


(   V1)    1.2894  (   V2)    1.3131  (   V3)    3.6835  (  V11)    1.5000      

(  V12)    1.5000  (  V13)    1.5000  ( VREF)    1.2656  (N00145)    3.3000     

(N00261)    1.2965 (N00291)    1.2929 (N00847)    3.3000 (N01666)    1.2966     

(N01678)    1.3128 (N02062)    1.3132 (N27228)   10.0000 (N37351)    1.5000     

(N38499)    1.0200 (X_U11.3)    1.8560                   (X_U11.5)     .1999    

(X_U11.6)     .1999                   (X_U11.7)    1.2966                       

(X_U11.8)    2.3000                   (X_U12.3)    1.8726                       

(X_U12.5)     .1999                   (X_U12.6)     .1999                       

(X_U12.7)    1.3132                   (X_U12.8)    9.0000                       

(X_U11.21)    1.2965                  (X_U11.22)    1.6500                      

(X_U11.30)    1.6504                  (X_U11.46)    2.6705                      

(X_U11.47)     .5743                  (X_U11.51)    1.6500                      

(X_U11.70)    0.0000                  (X_U11.71)    0.0000                      

(X_U11.72)    1.6500                  (X_U11.73)    1.6500                      

(X_U11.80)    1.6500                  (X_U11.81)    1.6500                      

(X_U11.97)    1.6500                  (X_U11.98)    1.6500                      

(X_U12.21)    1.3131                  (X_U12.22)    5.0000                      

(X_U12.30)    5.0009                  (X_U12.46)    9.3710                      

(X_U12.47)     .5748                  (X_U12.51)    5.0000                      

(X_U12.70)    0.0000                  (X_U12.71)    0.0000                      

(X_U12.72)    5.0000                  (X_U12.73)    5.0000                      

(X_U12.80)    5.0000                  (X_U12.81)    5.0000                      

(X_U12.97)    5.0000                  (X_U12.98)    5.0000                  




    VOLTAGE SOURCE CURRENTS
    NAME         CURRENT

    V_V1        -2.111E-04
    V_V2        -1.017E-05
    V_V18       -2.351E-04
    V_V19        0.000E+00
    V_V20       -1.500E-03
    V_V21        0.000E+00
    X_U11.V1     4.540E-13
    X_U11.VN1    0.000E+00
    X_U12.V1     7.137E-12
    X_U12.VN1    0.000E+00

    TOTAL POWER DISSIPATION   5.33E-03  WATTS



          JOB CONCLUDED

**** 05/11/15 15:00:10 ***** PSpice 16.6.0 (October 2012) ***** ID# 0 ********

 ** Profile: "SCHEMATIC1-dd"  [ F:\111\747-pspicefiles\schematic1\dd.sim ] 


 ****     JOB STATISTICS SUMMARY


******************************************************************************



  Total job time (using Solver 1)   =         .02
