
**** 05/08/15 17:46:40 ***** PSpice 16.6.0 (October 2012) ***** ID# 0 ********

 ** Profile: "SCHEMATIC1-ee"  [ F:\111\747-pspicefiles\schematic1\ee.sim ] 


 ****     CIRCUIT DESCRIPTION


******************************************************************************




** Creating circuit file "ee.cir" 
** WARNING: THIS AUTOMATICALLY GENERATED FILE MAY BE OVERWRITTEN BY SUBSEQUENT SIMULATIONS

*Libraries: 
* Profile Libraries :
* Local Libraries :
.LIB "F:/2015_new/5_spice-modle/op747/op747.lib" 
* From [PSPICE NETLIST] section of C:\ProgRam\Cadence\SPB_16.6\SPB_Data\cdssetup\OrCAD_PSpice/16.6.0/PSpice.ini file:
.lib "nom.lib" 

*Analysis directives: 
.AC DEC 10 0.1 100
.OPTIONS ADVCONV
.PROBE64 V(alias(*)) I(alias(*)) W(alias(*)) D(alias(*)) NOISE(alias(*)) 
.INC "..\SCHEMATIC1.net" 



**** INCLUDING SCHEMATIC1.net ****
* source 747
C_C4         N01294 N00291  22n  TC=0,0 
C_C2         V3 N02062  2.7n  TC=0,0 
X_U11         N00261 N01279 N00145 0 N01294 OP747 
R_R10         VREF N02062  20k TC=0,0 
C_C5         N37497 V1  1u  TC=0,0 
R_R5         VREF N00847  200k TC=0,0 
R_R4         VREF V1  2MEG TC=0,0 
R_R8         VREF N01279  300k TC=0,0 
C_C1         VREF N00261  10n  TC=0,0 
V_V1         N00145 0 3.3Vdc
X_U12         V2 N02062 N27228 0 V3 OP747 
R_R2         N01294 V2  20k TC=0,0 
R_R9         N02062 V3  1000K TC=0,0 
R_R1         N00291 N00261  510k TC=0,0 
R_R7         N01279 N01294  200k TC=0,0 
C_C3         N01294 N01279  2.7n  TC=0,0 
V_V2         N00847 0 3.3Vdc
R_R6         0 VREF  100k TC=0,0 
V_V18         N27228 0 3.3Vdc
R_R3         V1 N00291  300k TC=0,0 
V_V19         N36299 0  
+PULSE 20mV 0 0 10n 10n 0.5s 1s
R_R11         0 N36299  1k TC=0,0 
V_V20         N37497 0 DC 1.5Vdc AC 10m 

**** RESUMING ee.cir ****
.END

**** 05/08/15 17:46:40 ***** PSpice 16.6.0 (October 2012) ***** ID# 0 ********

 ** Profile: "SCHEMATIC1-ee"  [ F:\111\747-pspicefiles\schematic1\ee.sim ] 


 ****     Diode MODEL PARAMETERS


******************************************************************************




               X_U11.DX        X_U12.DX        
          IS   10.000000E-15   10.000000E-15 
          RS    5               5            


**** 05/08/15 17:46:40 ***** PSpice 16.6.0 (October 2012) ***** ID# 0 ********

 ** Profile: "SCHEMATIC1-ee"  [ F:\111\747-pspicefiles\schematic1\ee.sim ] 


 ****     BJT MODEL PARAMETERS


******************************************************************************




               X_U11.PIX       X_U12.PIX       
               PNP             PNP             
       LEVEL    1               1            
          IS   10.000000E-15   10.000000E-15 
          BF    2.273000E+03    2.273000E+03 
          NF    1               1            
         VAF  130             130            
          BR    1               1            
          NR    1               1            
         ISS    0               0            
          RE    0               0            
          RC    0               0            
         CJE    0               0            
         VJE     .75             .75         
         CJC    0               0            
         VJC     .75             .75         
         MJC     .33             .33         
        XCJC    1               1            
         CJS    0               0            
         VJS     .75             .75         
          KF    0               0            
          AF    1               1            
          CN    2.2             2.2          
           D     .52             .52         


**** 05/08/15 17:46:40 ***** PSpice 16.6.0 (October 2012) ***** ID# 0 ********

 ** Profile: "SCHEMATIC1-ee"  [ F:\111\747-pspicefiles\schematic1\ee.sim ] 


 ****     MOSFET MODEL PARAMETERS


******************************************************************************




               X_U11.POX       X_U11.NOX       X_U12.POX       X_U12.NOX       
               PMOS            NMOS            PMOS            NMOS            
       LEVEL    2               2               2               2            
           L  100.000000E-06  100.000000E-06  100.000000E-06  100.000000E-06 
           W  100.000000E-06  100.000000E-06  100.000000E-06  100.000000E-06 
         VTO    -.328            .328           -.328            .328        
          KP   10.000000E-06   10.000000E-06   10.000000E-06   10.000000E-06 
       GAMMA    0               0               0               0            
         PHI     .6              .6              .6              .6          
      LAMBDA     .01             .01             .01             .01         
          IS   10.000000E-15   10.000000E-15   10.000000E-15   10.000000E-15 
          JS    0               0               0               0            
          PB     .8              .8              .8              .8          
        PBSW     .8              .8              .8              .8          
          CJ    0               0               0               0            
        CJSW    0               0               0               0            
        CGSO    0               0               0               0            
        CGDO    0               0               0               0            
        CGBO    0               0               0               0            
         TOX  100.000000E-09  100.000000E-09  100.000000E-09  100.000000E-09 
          XJ    0               0               0               0            
       UCRIT   10.000000E+03   10.000000E+03   10.000000E+03   10.000000E+03 
          KF   25.000000E-24   25.000000E-24   25.000000E-24   25.000000E-24 
      DIOMOD    1               1               1               1            
         VFB    0               0               0               0            
        LETA    0               0               0               0            
        WETA    0               0               0               0            
          U0    0               0               0               0            
        TEMP    0               0               0               0            
         VDD    5               5               5               5            
       XPART    0               0               0               0            


**** 05/08/15 17:46:40 ***** PSpice 16.6.0 (October 2012) ***** ID# 0 ********

 ** Profile: "SCHEMATIC1-ee"  [ F:\111\747-pspicefiles\schematic1\ee.sim ] 


 ****     SMALL SIGNAL BIAS SOLUTION       TEMPERATURE =   27.000 DEG C


******************************************************************************



 NODE   VOLTAGE     NODE   VOLTAGE     NODE   VOLTAGE     NODE   VOLTAGE


(   V1)    1.2672  (   V2)    1.2975  (   V3)    3.2992  ( VREF)    1.2434      

(N00145)    3.3000 (N00261)    1.2769 (N00291)    1.2708 (N00847)    3.3000     

(N01279)    1.2770 (N01294)    1.2973 (N02062)    1.2840 (N27228)    3.3000     

(N36299)     .0200 (N37497)    1.5000 (X_U11.3)    1.8364                       

(X_U11.5)     .1999                   (X_U11.6)     .1999                       

(X_U11.7)    1.2770                   (X_U11.8)    2.3000                       

(X_U12.3)    1.8494                   (X_U12.5)     .1486                       

(X_U12.6)     .2512                   (X_U12.7)    1.2976                       

(X_U12.8)    2.3000                   (X_U11.21)    1.2769                      

(X_U11.22)    1.6500                  (X_U11.30)    1.6504                      

(X_U11.46)    2.6705                  (X_U11.47)     .5743                      

(X_U11.51)    1.6500                  (X_U11.70)    0.0000                      

(X_U11.71)    0.0000                  (X_U11.72)    1.6500                      

(X_U11.73)    1.6500                  (X_U11.80)    1.6500                      

(X_U11.81)    1.6500                  (X_U11.97)    1.6500                      

(X_U11.98)    1.6500                  (X_U12.21)    1.2908                      

(X_U12.22)    1.6500                  (X_U12.30)    1.1456                      

(X_U12.46)    2.1657                  (X_U12.47)     .0695                      

(X_U12.51)    1.6500                  (X_U12.70)    0.0000                      

(X_U12.71)    0.0000                  (X_U12.72)    1.6500                      

(X_U12.73)    1.6500                  (X_U12.80)    1.6500                      

(X_U12.81)    1.6500                  (X_U12.97)    1.6500                      

(X_U12.98)    1.6500                  




    VOLTAGE SOURCE CURRENTS
    NAME         CURRENT

    V_V1        -2.111E-04
    V_V2        -1.028E-05
    V_V18       -6.060E-05
    V_V19       -2.000E-05
    V_V20        0.000E+00
    X_U11.V1     4.736E-13
    X_U11.VN1    0.000E+00
    X_U12.V1     4.606E-13
    X_U12.VN1    0.000E+00

    TOTAL POWER DISSIPATION   9.31E-04  WATTS



          JOB CONCLUDED

**** 05/08/15 17:46:40 ***** PSpice 16.6.0 (October 2012) ***** ID# 0 ********

 ** Profile: "SCHEMATIC1-ee"  [ F:\111\747-pspicefiles\schematic1\ee.sim ] 


 ****     JOB STATISTICS SUMMARY


******************************************************************************



  Total job time (using Solver 1)   =        0.00
