
**** 05/28/15 17:38:51 ***** PSpice 16.6.0 (October 2012) ***** ID# 0 ********

 ** Profile: "SCHEMATIC1-t"  [ F:\111\t5ttty-PSpiceFiles\SCHEMATIC1\t.sim ] 


 ****     CIRCUIT DESCRIPTION


******************************************************************************




** Creating circuit file "t.cir" 
** WARNING: THIS AUTOMATICALLY GENERATED FILE MAY BE OVERWRITTEN BY SUBSEQUENT SIMULATIONS

*Libraries: 
* Profile Libraries :
* Local Libraries :
* From [PSPICE NETLIST] section of C:\ProgRam\Cadence\SPB_16.6\SPB_Data\cdssetup\OrCAD_PSpice/16.6.0/PSpice.ini file:
.lib "F:\2015_NEW\5_spice-modle\AD623\ad623.lib" 
.lib "nom.lib" 

*Analysis directives: 
.TRAN  0 1.1s 1s 
.OPTIONS ADVCONV
.PROBE64 V(alias(*)) I(alias(*)) W(alias(*)) D(alias(*)) NOISE(alias(*)) 
.INC "..\SCHEMATIC1.net" 



**** INCLUDING SCHEMATIC1.net ****
* source T5TTTY
V_V1         N00060 N00421  
+SIN 0 10mV 10Hz 0 0 0
R_R1         N00437 N00430  100k TC=0,0 
X_U1         N00060 N00421 N00430 N00437 N00490 0 N00560 0 AD623 
V_V2         N00421 0 1.5Vdc
V_V3         N00490 0 3.3Vdc

**** RESUMING t.cir ****
.END

**** 05/28/15 17:38:51 ***** PSpice 16.6.0 (October 2012) ***** ID# 0 ********

 ** Profile: "SCHEMATIC1-t"  [ F:\111\t5ttty-PSpiceFiles\SCHEMATIC1\t.sim ] 


 ****     Diode MODEL PARAMETERS


******************************************************************************




               X_U1.DX         X_U1.DNOI1      X_U1.DNOI2      
          IS  100.000000E-18   10.000000E-15   10.000000E-15 
          KF                  600.000000E-12   10.000000E-09 
          AF                    1.5                          


**** 05/28/15 17:38:51 ***** PSpice 16.6.0 (October 2012) ***** ID# 0 ********

 ** Profile: "SCHEMATIC1-t"  [ F:\111\t5ttty-PSpiceFiles\SCHEMATIC1\t.sim ] 


 ****     BJT MODEL PARAMETERS


******************************************************************************




               X_U1.QPI        X_U1.QNOX       X_U1.QPOX       X_U1.QPI1       
               PNP             NPN             PNP             PNP             
       LEVEL    1               1               1               1            
          IS  100.000000E-18    6.000000E-15    6.000000E-15  100.000000E-18 
          BF  100             100             112             100            
          NF    1               1               1               1            
         VAF  100             120             120             100            
          BR    1               1               1               1            
          NR    1               1               1               1            
         ISS    0               0               0               0            
          RE    0               0               0               0            
          RC    0              50              50               0            
         CJE    0               0               0               0            
         VJE     .75             .75             .75             .75         
         CJC    0               0               0               0            
         VJC     .75             .75             .75             .75         
         MJC     .33             .33             .33             .33         
        XCJC    1               1               1               1            
         CJS    0               0               0               0            
         VJS     .75             .75             .75             .75         
          KF    0               0               0               0            
          AF    1               1               1               1            
          CN    2.2             2.42            2.2             2.2          
           D     .52             .87             .52             .52         


               X_U1.QPI2       
               PNP             
       LEVEL    1            
          IS  100.000000E-18 
          BF  100            
          NF    1            
         VAF   99.3          
          BR    1            
          NR    1            
         ISS    0            
          RE    0            
          RC    0            
         CJE    0            
         VJE     .75         
         CJC    0            
         VJC     .75         
         MJC     .33         
        XCJC    1            
         CJS    0            
         VJS     .75         
          KF    0            
          AF    1            
          CN    2.2          
           D     .52         


**** 05/28/15 17:38:51 ***** PSpice 16.6.0 (October 2012) ***** ID# 0 ********

 ** Profile: "SCHEMATIC1-t"  [ F:\111\t5ttty-PSpiceFiles\SCHEMATIC1\t.sim ] 


 ****     INITIAL TRANSIENT SOLUTION       TEMPERATURE =   27.000 DEG C


******************************************************************************



 NODE   VOLTAGE     NODE   VOLTAGE     NODE   VOLTAGE     NODE   VOLTAGE


(N00060)    1.5000 (N00421)    1.5000 (N00430)    2.1139 (N00437)    2.1139     

(N00490)    3.3000 (N00560)   17.3560 (X_U1.97)    0.0000                       

(X_U1.98)    1.6500                   (X_U1.A3)    2.1135                       

(X_U1.A4)    2.1134                   (X_U1.B3)    1.0588                       

(X_U1.B4)     .0842                   (X_U1.B5)    1.7134                       

(X_U1.B6) 99.03E-09                   (X_U1.b7)    1.7464                       

(X_U1.B8)    1.7464                   (X_U1.C3)    1.6500                       

(X_U1.C4)     .0420                   (X_U1.C5)    2.1140                       

(X_U1.C6)     .0422                   (X_U1.C8)    2.7503                       

(X_U1.D3)    1.6500                   (X_U1.D4)     .0420                       

(X_U1.D5)    2.1140                   (X_U1.D6)     .0422                       

(X_U1.D8)    2.7503                   (X_U1.103)    2.1114                      

(X_U1.104)    2.1114                  (X_U1.201)    1.0582                      

(X_U1.202)    9.7338                  (X_U1.B20)    1.6963                      

(X_U1.B21)    1.6921                  (X_U1.B30)    3.4099                      

(X_U1.B31)    4.0099                  (X_U1.B32)    2.8099                      

(X_U1.B41)    2.7035                  (X_U1.B42)   20.3020                      

(X_U1.B43)    3.3000                  (X_U1.B44)   18.1950                      

(X_U1.B46)   17.3450                  (X_U1.B47)     .5965                      

(X_U1.B51)    2.2900                  (X_U1.B52)    1.6500                      

(X_U1.B53)    1.6494                  (X_U1.C20)    1.6489                      

(X_U1.C30)    1.3793                  (X_U1.C31)    1.9793                      

(X_U1.C32)     .7793                  (X_U1.C41)    2.7035                      

(X_U1.C42)    1.3499                  (X_U1.C43)    2.1305                      

(X_U1.C44)    -.7571                  (X_U1.C46) 64.63E-12                      

(X_U1.C47)     .5965                  (X_U1.C51)    2.2900                      

(X_U1.C52)    1.6500                  (X_U1.C53)    1.6494                      

(X_U1.D20)    1.6489                  (X_U1.D30)    1.3775                      

(X_U1.D31)    1.9775                  (X_U1.D32)     .7775                      

(X_U1.D41)    2.7035                  (X_U1.D42)    1.3409                      

(X_U1.D43)    2.1218                  (X_U1.D44)    -.7661                      

(X_U1.D46) 64.63E-12                  (X_U1.D47)     .5965                      

(X_U1.D51)    2.2900                  (X_U1.D52)    1.6500                      

(X_U1.D53)    1.6494                  




    VOLTAGE SOURCE CURRENTS
    NAME         CURRENT

    V_V1         1.998E-08
    V_V2         3.996E-08
    V_V3         5.569E-05
    X_U1.VN1B   -5.578E-04
    X_U1.VMEASB   5.578E-04
    X_U1.V1B    -8.321E-05
    X_U1.V2B     2.810E-12
    X_U1.VBI01B   3.105E-12
    X_U1.VBIO2B  -5.783E-01
    X_U1.VN1C   -5.578E-04
    X_U1.VMEASC   5.578E-04
    X_U1.V1C     1.321E-12
    X_U1.V2C     7.794E-13
    X_U1.VBI01C  -3.896E-02
    X_U1.VBIO2C   2.882E-12
    X_U1.VN1D   -5.578E-04
    X_U1.VMEASD   5.578E-04
    X_U1.V1D     1.323E-12
    X_U1.V2D     7.776E-13
    X_U1.VBI01D  -3.943E-02
    X_U1.VBIO2D   2.891E-12

    TOTAL POWER DISSIPATION   3.93E-01  WATTS



          JOB CONCLUDED

**** 05/28/15 17:38:51 ***** PSpice 16.6.0 (October 2012) ***** ID# 0 ********

 ** Profile: "SCHEMATIC1-t"  [ F:\111\t5ttty-PSpiceFiles\SCHEMATIC1\t.sim ] 


 ****     JOB STATISTICS SUMMARY


******************************************************************************



  Total job time (using Solver 1)   =         .02
